Freq.	I(R1)
0.00000000000000e+00	(-1.09193424095806e+02dB,0.00000000000000e+00°)
5.00000000000000e+03	(-1.32066316753568e+02dB,9.34103454653767e+01°)
1.00000000000000e+04	(-1.38073716074942e+02dB,9.24077156282331e+01°)
1.50000000000000e+04	(-1.41585966674874e+02dB,9.23767810734784e+01°)
2.00000000000000e+04	(-1.44074514747333e+02dB,9.25954693848047e+01°)
2.50000000000000e+04	(-1.46001384321450e+02dB,9.28960684777497e+01°)
3.00000000000000e+04	(-1.47567962746789e+02dB,9.32329128329591e+01°)
3.50000000000000e+04	(-1.48889411519343e+02dB,9.36133260283902e+01°)
4.00000000000000e+04	(-1.50032703673075e+02dB,9.39830586895080e+01°)
4.50000000000000e+04	(-1.51031847852750e+02dB,9.43609776928939e+01°)
5.00000000000000e+04	(-1.21120437922750e+02dB,9.74991518326692e+01°)
5.50000000000000e+04	(-1.52716835700380e+02dB,9.52867734343666e+01°)
6.00000000000000e+04	(-1.53432632121695e+02dB,9.56835299283694e+01°)
6.50000000000000e+04	(-1.54094487696180e+02dB,9.60585195630800e+01°)
7.00000000000000e+04	(-1.54695213042571e+02dB,9.63825776392159e+01°)
7.50000000000000e+04	(-1.55245603998727e+02dB,9.67035185091715e+01°)
8.00000000000000e+04	(-1.55766294843163e+02dB,9.69938124526087e+01°)
8.50000000000000e+04	(-1.56256971018581e+02dB,9.72448740563494e+01°)
9.00000000000000e+04	(-1.56712921033326e+02dB,9.75151624018862e+01°)
9.50000000000000e+04	(-1.57150675665577e+02dB,9.77755668019943e+01°)
1.00000000000000e+05	(-1.64854286875971e+02dB,9.80950203602331e+01°)
1.05000000000000e+05	(-1.57979849969179e+02dB,9.83291079961402e+01°)
1.10000000000000e+05	(-1.58335919371259e+02dB,9.85075745579258e+01°)
1.15000000000000e+05	(-1.58673554731605e+02dB,9.87774588512044e+01°)
1.20000000000000e+05	(-1.58999713774201e+02dB,9.91147273152387e+01°)
1.25000000000000e+05	(-1.59314114931731e+02dB,9.93293549784052e+01°)
1.30000000000000e+05	(-1.59597382152829e+02dB,9.95181525901076e+01°)
1.35000000000000e+05	(-1.59875390554765e+02dB,9.97885981368252e+01°)
1.40000000000000e+05	(-1.60136275973495e+02dB,9.99623046284775e+01°)
1.45000000000000e+05	(-1.60375691860967e+02dB,1.00094113065093e+02°)
1.50000000000000e+05	(-1.32469081330695e+02dB,1.17005479172083e+02°)
1.55000000000000e+05	(-1.60833461465896e+02dB,1.00710545553410e+02°)
1.60000000000000e+05	(-1.61060503235467e+02dB,1.00772580142954e+02°)
1.65000000000000e+05	(-1.61287902511636e+02dB,1.00772831964464e+02°)
1.70000000000000e+05	(-1.61496961480990e+02dB,1.00744037541033e+02°)
1.75000000000000e+05	(-1.61692246210889e+02dB,1.00707584454171e+02°)
1.80000000000000e+05	(-1.61903730463943e+02dB,1.00696091980472e+02°)
1.85000000000000e+05	(-1.62129993405032e+02dB,1.00672970545127e+02°)
1.90000000000000e+05	(-1.62336441747555e+02dB,1.00714373891511e+02°)
1.95000000000000e+05	(-1.62547425138765e+02dB,1.00615427479321e+02°)
2.00000000000000e+05	(-1.67522203685722e+02dB,-4.86617406360033e+01°)
2.05000000000000e+05	(-1.62944789422934e+02dB,1.01132536239967e+02°)
2.10000000000000e+05	(-1.63083229497026e+02dB,1.01143529046978e+02°)
2.15000000000000e+05	(-1.63227100518136e+02dB,1.01251118984827e+02°)
2.20000000000000e+05	(-1.63381965327719e+02dB,1.01420359277100e+02°)
2.25000000000000e+05	(-1.63536384863699e+02dB,1.01385131040785e+02°)
2.30000000000000e+05	(-1.63669431877777e+02dB,1.01351585449428e+02°)
2.35000000000000e+05	(-1.63809675205895e+02dB,1.01426539261792e+02°)
2.40000000000000e+05	(-1.63928848312336e+02dB,1.01454912530193e+02°)
2.45000000000000e+05	(-1.64046650122088e+02dB,1.01351878368085e+02°)
2.50000000000000e+05	(-1.40376926334103e+02dB,1.38556850905339e+02°)
2.55000000000000e+05	(-1.64360438253099e+02dB,1.01542565549537e+02°)
2.60000000000000e+05	(-1.64506412869745e+02dB,1.01438372671108e+02°)
2.65000000000000e+05	(-1.64638022644820e+02dB,1.01251470914935e+02°)
2.70000000000000e+05	(-1.64773982183650e+02dB,1.01044825113957e+02°)
2.75000000000000e+05	(-1.64894115828015e+02dB,1.00863667384089e+02°)
2.80000000000000e+05	(-1.65041415449075e+02dB,1.00826827855870e+02°)
2.85000000000000e+05	(-1.65212173848587e+02dB,1.00722520928660e+02°)
2.90000000000000e+05	(-1.65349468317330e+02dB,1.00686038439989e+02°)
2.95000000000000e+05	(-1.65461635598451e+02dB,1.00335518032891e+02°)
3.00000000000000e+05	(-1.63520173488563e+02dB,-2.52810569162686e+01°)
3.05000000000000e+05	(-1.65712703955129e+02dB,1.01038666844146e+02°)
3.10000000000000e+05	(-1.65794564743940e+02dB,1.01011399942104e+02°)
3.15000000000000e+05	(-1.65886940562476e+02dB,1.01024992243891e+02°)
3.20000000000000e+05	(-1.65994937799935e+02dB,1.01060454359345e+02°)
3.25000000000000e+05	(-1.66100844920997e+02dB,1.00965292134989e+02°)
3.30000000000000e+05	(-1.66193506121639e+02dB,1.00855570286804e+02°)
3.35000000000000e+05	(-1.66281738129633e+02dB,1.00844344058063e+02°)
3.40000000000000e+05	(-1.66362343707818e+02dB,1.00910587827516e+02°)
3.45000000000000e+05	(-1.66453167874067e+02dB,1.00749966693500e+02°)
3.50000000000000e+05	(-1.48745746089747e+02dB,1.61163658901783e+02°)
3.55000000000000e+05	(-1.66782545237220e+02dB,1.00430433118564e+02°)
3.60000000000000e+05	(-1.66879047680606e+02dB,1.00303069540174e+02°)
3.65000000000000e+05	(-1.66955389015561e+02dB,1.00202427139509e+02°)
3.70000000000000e+05	(-1.67063898065362e+02dB,9.99494613500390e+01°)
3.75000000000000e+05	(-1.67150463506466e+02dB,9.97864070826834e+01°)
3.80000000000000e+05	(-1.67270185431639e+02dB,9.98674831582702e+01°)
3.85000000000000e+05	(-1.67397928416315e+02dB,9.97639915465469e+01°)
3.90000000000000e+05	(-1.67481713323454e+02dB,9.96461153082168e+01°)
3.95000000000000e+05	(-1.67502400777501e+02dB,9.92432883299104e+01°)
4.00000000000000e+05	(-1.63502531363823e+02dB,7.45797514600346e+00°)
4.05000000000000e+05	(-1.67734154453956e+02dB,1.00229492060195e+02°)
4.10000000000000e+05	(-1.67811742194107e+02dB,1.00135851277979e+02°)
4.15000000000000e+05	(-1.67893078864048e+02dB,1.00039516561156e+02°)
4.20000000000000e+05	(-1.67977712210583e+02dB,9.99909066768229e+01°)
4.25000000000000e+05	(-1.68068834925844e+02dB,9.99909599121799e+01°)
4.30000000000000e+05	(-1.68145527786229e+02dB,9.98342570743346e+01°)
4.35000000000000e+05	(-1.68196023376062e+02dB,9.98055274624752e+01°)
4.40000000000000e+05	(-1.68285216514131e+02dB,9.98633814816251e+01°)
4.45000000000000e+05	(-1.68387508562138e+02dB,9.97378007754456e+01°)
4.50000000000000e+05	(-1.60627849787105e+02dB,1.76548016012753e+02°)
4.55000000000000e+05	(-1.68703184424944e+02dB,9.88285887811030e+01°)
4.60000000000000e+05	(-1.68729274699151e+02dB,9.88424674747980e+01°)
4.65000000000000e+05	(-1.68775086544571e+02dB,9.89825338868050e+01°)
4.70000000000000e+05	(-1.68866240410110e+02dB,9.87456395434074e+01°)
4.75000000000000e+05	(-1.68929067132433e+02dB,9.86307409975780e+01°)
4.80000000000000e+05	(-1.69027543491556e+02dB,9.87947826902732e+01°)
4.85000000000000e+05	(-1.69116982152087e+02dB,9.87545926766667e+01°)
4.90000000000000e+05	(-1.69154799223392e+02dB,9.85753680942952e+01°)
4.95000000000000e+05	(-1.69130037167720e+02dB,9.83833324793267e+01°)
5.00000000000000e+05	(-1.64534071478123e+02dB,4.27189360490391e+01°)
5.05000000000000e+05	(-1.69420406606199e+02dB,9.95323562795811e+01°)
5.10000000000000e+05	(-1.69483262104144e+02dB,9.92571831201674e+01°)
5.15000000000000e+05	(-1.69553463173839e+02dB,9.89430525752164e+01°)
5.20000000000000e+05	(-1.69619628070923e+02dB,9.88658522577312e+01°)
5.25000000000000e+05	(-1.69715421783838e+02dB,9.89629329352202e+01°)
5.30000000000000e+05	(-1.69779371897792e+02dB,9.87235523298082e+01°)
5.35000000000000e+05	(-1.69810409144884e+02dB,9.87338056915661e+01°)
5.40000000000000e+05	(-1.69919808632122e+02dB,9.86581658719169e+01°)
5.45000000000000e+05	(-1.70042482905201e+02dB,9.85962715097196e+01°)
5.50000000000000e+05	(-1.68639335303039e+02dB,7.37908337994313e+01°)
5.55000000000000e+05	(-1.70257977365743e+02dB,9.73664388366531e+01°)
5.60000000000000e+05	(-1.70209940856361e+02dB,9.77374740885538e+01°)
5.65000000000000e+05	(-1.70259313989561e+02dB,9.80063873389512e+01°)
5.70000000000000e+05	(-1.70350964389397e+02dB,9.77863915750453e+01°)
5.75000000000000e+05	(-1.70399390248636e+02dB,9.76940802179035e+01°)
5.80000000000000e+05	(-1.70477078478587e+02dB,9.79097724715808e+01°)
5.85000000000000e+05	(-1.70554629465199e+02dB,9.80002303613853e+01°)
5.90000000000000e+05	(-1.70562303519004e+02dB,9.78852197767829e+01°)
5.95000000000000e+05	(-1.70557992744013e+02dB,9.79355568317950e+01°)
6.00000000000000e+05	(-1.66396425670011e+02dB,7.61832030200607e+01°)
6.05000000000000e+05	(-1.70896512151067e+02dB,9.87757961789004e+01°)
6.10000000000000e+05	(-1.70911264802284e+02dB,9.83361562937006e+01°)
6.15000000000000e+05	(-1.70959326637397e+02dB,9.77614821422052e+01°)
6.20000000000000e+05	(-1.71026874606999e+02dB,9.77228246963121e+01°)
6.25000000000000e+05	(-1.71134359793770e+02dB,9.78831919759227e+01°)
6.30000000000000e+05	(-1.71179265900414e+02dB,9.76258378160822e+01°)
6.35000000000000e+05	(-1.71210610184586e+02dB,9.76632027958555e+01°)
6.40000000000000e+05	(-1.71313367063277e+02dB,9.74570115948651e+01°)
6.45000000000000e+05	(-1.71430250970711e+02dB,9.74562673553468e+01°)
6.50000000000000e+05	(-1.63059912050422e+02dB,7.83714198051826e+01°)
6.55000000000000e+05	(-1.71512912973803e+02dB,9.63459623213171e+01°)
6.60000000000000e+05	(-1.71444020554234e+02dB,9.71550991467951e+01°)
6.65000000000000e+05	(-1.71522876839738e+02dB,9.72935332728330e+01°)
6.70000000000000e+05	(-1.71636251043182e+02dB,9.70896872809621e+01°)
6.75000000000000e+05	(-1.71671694309129e+02dB,9.70600047516149e+01°)
6.80000000000000e+05	(-1.71722976720160e+02dB,9.73730344866313e+01°)
6.85000000000000e+05	(-1.71813016076776e+02dB,9.75248908614497e+01°)
6.90000000000000e+05	(-1.71813948419570e+02dB,9.75548010948166e+01°)
6.95000000000000e+05	(-1.71863384806720e+02dB,9.75271252383733e+01°)
7.00000000000000e+05	(-1.69562486196926e+02dB,1.05227957585012e+02°)
7.05000000000000e+05	(-1.72161800571907e+02dB,9.75357871392663e+01°)
7.10000000000000e+05	(-1.72135206494594e+02dB,9.72185992643343e+01°)
7.15000000000000e+05	(-1.72164281020126e+02dB,9.65906795746112e+01°)
7.20000000000000e+05	(-1.72251550307580e+02dB,9.66496399299736e+01°)
7.25000000000000e+05	(-1.72352325676416e+02dB,9.68954285658927e+01°)
7.30000000000000e+05	(-1.72373235434809e+02dB,9.67320849434920e+01°)
7.35000000000000e+05	(-1.72405448810579e+02dB,9.66469881174697e+01°)
7.40000000000000e+05	(-1.72474778991149e+02dB,9.64757824976104e+01°)
7.45000000000000e+05	(-1.72551262450328e+02dB,9.66017230175536e+01°)
7.50000000000000e+05	(-1.63699264228387e+02dB,9.81861641822850e+01°)
7.55000000000000e+05	(-1.72575723711394e+02dB,9.58327698700916e+01°)
7.60000000000000e+05	(-1.72565626149499e+02dB,9.69090286238146e+01°)
7.65000000000000e+05	(-1.72661920256377e+02dB,9.67804225076579e+01°)
7.70000000000000e+05	(-1.72791374619594e+02dB,9.66103657939606e+01°)
7.75000000000000e+05	(-1.72804582553488e+02dB,9.67048592987697e+01°)
7.80000000000000e+05	(-1.72825222650298e+02dB,9.71016106167445e+01°)
7.85000000000000e+05	(-1.72928399687731e+02dB,9.70767974092800e+01°)
7.90000000000000e+05	(-1.72957096641778e+02dB,9.71355771313308e+01°)
7.95000000000000e+05	(-1.73045410369199e+02dB,9.66781448561717e+01°)
8.00000000000000e+05	(-1.75015760059427e+02dB,1.24285107395031e+02°)
8.05000000000000e+05	(-1.73193817576311e+02dB,9.59886684671493e+01°)
8.10000000000000e+05	(-1.73185024085983e+02dB,9.61248928377236e+01°)
8.15000000000000e+05	(-1.73215040898085e+02dB,9.57475630174595e+01°)
8.20000000000000e+05	(-1.73311686464170e+02dB,9.58820431647926e+01°)
8.25000000000000e+05	(-1.73376079286516e+02dB,9.62382687642379e+01°)
8.30000000000000e+05	(-1.73385421671421e+02dB,9.61234674094974e+01°)
8.35000000000000e+05	(-1.73407532723568e+02dB,9.57682755894367e+01°)
8.40000000000000e+05	(-1.73461869336295e+02dB,9.58403161279663e+01°)
8.45000000000000e+05	(-1.73496504655399e+02dB,9.63006830664805e+01°)
8.50000000000000e+05	(-1.67127640314551e+02dB,1.13510731007060e+02°)
8.55000000000000e+05	(-1.73561846582412e+02dB,9.57310305323977e+01°)
8.60000000000000e+05	(-1.73641549436984e+02dB,9.66781610925301e+01°)
8.65000000000000e+05	(-1.73705988511921e+02dB,9.63541181802557e+01°)
8.70000000000000e+05	(-1.73818416457280e+02dB,9.62265672367838e+01°)
8.75000000000000e+05	(-1.73810302673100e+02dB,9.63699546034489e+01°)
8.80000000000000e+05	(-1.73814818337914e+02dB,9.66889273532016e+01°)
8.85000000000000e+05	(-1.73918297546391e+02dB,9.63785988500947e+01°)
8.90000000000000e+05	(-1.73998408218193e+02dB,9.62485162516649e+01°)
8.95000000000000e+05	(-1.74082125106814e+02dB,9.54114562722252e+01°)
9.00000000000000e+05	(-1.82505680805857e+02dB,9.86894234675191e+01°)
9.05000000000000e+05	(-1.74020805346276e+02dB,9.49248793284390e+01°)
9.10000000000000e+05	(-1.74091248591386e+02dB,9.54748472181687e+01°)
9.15000000000000e+05	(-1.74144544873692e+02dB,9.53899869000641e+01°)
9.20000000000000e+05	(-1.74224260583321e+02dB,9.54873545682356e+01°)
9.25000000000000e+05	(-1.74248848298669e+02dB,9.59077712834316e+01°)
9.30000000000000e+05	(-1.74276399053668e+02dB,9.56591884001574e+01°)
9.35000000000000e+05	(-1.74291068571017e+02dB,9.51487193576417e+01°)
9.40000000000000e+05	(-1.74373261409733e+02dB,9.55673205680464e+01°)
9.45000000000000e+05	(-1.74393303203175e+02dB,9.65364688946996e+01°)
9.50000000000000e+05	(-1.72224143360201e+02dB,1.10064760816961e+02°)
9.55000000000000e+05	(-1.74514856488054e+02dB,9.57457483961077e+01°)
9.60000000000000e+05	(-1.74636146207441e+02dB,9.61527526535091e+01°)
9.65000000000000e+05	(-1.74627597955043e+02dB,9.58227085352572e+01°)
9.70000000000000e+05	(-1.74707704709345e+02dB,9.57465819532287e+01°)
9.75000000000000e+05	(-1.74701940225472e+02dB,9.57710150128484e+01°)
9.80000000000000e+05	(-1.74710172555430e+02dB,9.58720826576612e+01°)
9.85000000000000e+05	(-1.74806514433830e+02dB,9.55306084665150e+01°)
9.90000000000000e+05	(-1.74909809519674e+02dB,9.51118006825314e+01°)
9.95000000000000e+05	(-1.74956131563591e+02dB,9.42864979137146e+01°)
1.00000000000000e+06	(-1.78644815729618e+02dB,6.31432665957815e+01°)
1.00500000000000e+06	(-1.74735584200549e+02dB,9.48037647522347e+01°)
1.01000000000000e+06	(-1.74903456198533e+02dB,9.53292379667209e+01°)
1.01500000000000e+06	(-1.74989506941333e+02dB,9.52733577688480e+01°)
1.02000000000000e+06	(-1.75047770857938e+02dB,9.52650659415066e+01°)
1.02500000000000e+06	(-1.75058709872125e+02dB,9.57247744332868e+01°)
1.03000000000000e+06	(-1.75117382100962e+02dB,9.52632705206308e+01°)
1.03500000000000e+06	(-1.75144142183776e+02dB,9.49037963443525e+01°)
1.04000000000000e+06	(-1.75258789838597e+02dB,9.55680377114854e+01°)
1.04500000000000e+06	(-1.75282722465477e+02dB,9.68354279442907e+01°)
1.05000000000000e+06	(-1.73675902026805e+02dB,8.49883429360825e+01°)
1.05500000000000e+06	(-1.75398250621081e+02dB,9.54215131516439e+01°)
1.06000000000000e+06	(-1.75489510829695e+02dB,9.52417433732428e+01°)
1.06500000000000e+06	(-1.75419423239822e+02dB,9.51599799536945e+01°)
1.07000000000000e+06	(-1.75490493340491e+02dB,9.51698164470912e+01°)
1.07500000000000e+06	(-1.75504589675221e+02dB,9.49929029969370e+01°)
1.08000000000000e+06	(-1.75511264029252e+02dB,9.49322154610470e+01°)
1.08500000000000e+06	(-1.75606599510055e+02dB,9.49197684547223e+01°)
1.09000000000000e+06	(-1.75662851565920e+02dB,9.43361898251675e+01°)
1.09500000000000e+06	(-1.75681572231732e+02dB,9.37575131112906e+01°)
1.10000000000000e+06	(-1.75886189629697e+02dB,7.45487696522648e+01°)
1.10500000000000e+06	(-1.75454936396590e+02dB,9.52188651226079e+01°)
1.11000000000000e+06	(-1.75696933452319e+02dB,9.53288349677535e+01°)
1.11500000000000e+06	(-1.75795260515839e+02dB,9.51176114253504e+01°)
1.12000000000000e+06	(-1.75845599099388e+02dB,9.50400512242190e+01°)
1.12500000000000e+06	(-1.75861750177725e+02dB,9.55793575418998e+01°)
1.13000000000000e+06	(-1.75926805997631e+02dB,9.50200758941530e+01°)
1.13500000000000e+06	(-1.75983885824547e+02dB,9.48839269682420e+01°)
1.14000000000000e+06	(-1.76087043521728e+02dB,9.55348535087841e+01°)
1.14500000000000e+06	(-1.76101773162554e+02dB,9.65003293223369e+01°)
1.15000000000000e+06	(-1.72269103113738e+02dB,8.29827694705115e+01°)
1.15500000000000e+06	(-1.76170249534562e+02dB,9.46369825180867e+01°)
1.16000000000000e+06	(-1.76210758152728e+02dB,9.43327539419878e+01°)
1.16500000000000e+06	(-1.76126361989067e+02dB,9.47049082940858e+01°)
1.17000000000000e+06	(-1.76210153943801e+02dB,9.47470666560556e+01°)
1.17500000000000e+06	(-1.76229302350796e+02dB,9.44302863004458e+01°)
1.18000000000000e+06	(-1.76210725320037e+02dB,9.43745500808464e+01°)
1.18500000000000e+06	(-1.76318834338378e+02dB,9.46833178584028e+01°)
1.19000000000000e+06	(-1.76295575378646e+02dB,9.42048766929376e+01°)
1.19500000000000e+06	(-1.76329427356871e+02dB,9.37520143179940e+01°)
1.20000000000000e+06	(-1.75862702914968e+02dB,9.08774565827542e+01°)
1.20500000000000e+06	(-1.76250872910388e+02dB,9.54650875922743e+01°)
1.21000000000000e+06	(-1.76512653025804e+02dB,9.51369302691065e+01°)
1.21500000000000e+06	(-1.76571730730217e+02dB,9.49337235684409e+01°)
1.22000000000000e+06	(-1.76612708860917e+02dB,9.47736377223478e+01°)
1.22500000000000e+06	(-1.76630427202258e+02dB,9.53720299396104e+01°)
1.23000000000000e+06	(-1.76675626337854e+02dB,9.48855971086897e+01°)
1.23500000000000e+06	(-1.76763814194007e+02dB,9.46453883960490e+01°)
1.24000000000000e+06	(-1.76816453633689e+02dB,9.51387371685070e+01°)
1.24500000000000e+06	(-1.76779190358155e+02dB,9.54048503131594e+01°)
1.25000000000000e+06	(-1.72516067848023e+02dB,9.40300162915647e+01°)
1.25500000000000e+06	(-1.76837327712362e+02dB,9.39769788413734e+01°)
1.26000000000000e+06	(-1.76863435465970e+02dB,9.40126498929174e+01°)
1.26500000000000e+06	(-1.76796669336781e+02dB,9.47713135472457e+01°)
1.27000000000000e+06	(-1.76873310914261e+02dB,9.46023787398229e+01°)
1.27500000000000e+06	(-1.76880570684557e+02dB,9.42421906549534e+01°)
1.28000000000000e+06	(-1.76840955031883e+02dB,9.42857655705070e+01°)
1.28500000000000e+06	(-1.76966212236310e+02dB,9.45685860620238e+01°)
1.29000000000000e+06	(-1.76916784465442e+02dB,9.44533202940097e+01°)
1.29500000000000e+06	(-1.76997489294208e+02dB,9.39817003690682e+01°)
1.30000000000000e+06	(-1.77723805699947e+02dB,1.01240553638299e+02°)
1.30500000000000e+06	(-1.77087351505777e+02dB,9.52281821926093e+01°)
1.31000000000000e+06	(-1.77294217152535e+02dB,9.46779761485129e+01°)
1.31500000000000e+06	(-1.77276667427672e+02dB,9.48043198376963e+01°)
1.32000000000000e+06	(-1.77290840401785e+02dB,9.44100537757648e+01°)
1.32500000000000e+06	(-1.77313862522027e+02dB,9.49447186694585e+01°)
1.33000000000000e+06	(-1.77356449596060e+02dB,9.46469733361942e+01°)
1.33500000000000e+06	(-1.77446066425591e+02dB,9.40133635607741e+01°)
1.34000000000000e+06	(-1.77451142125200e+02dB,9.45048885360367e+01°)
1.34500000000000e+06	(-1.77318294935080e+02dB,9.43501406602601e+01°)
1.35000000000000e+06	(-1.74563926835022e+02dB,1.03452222417451e+02°)
1.35500000000000e+06	(-1.77446619688437e+02dB,9.41311951439990e+01°)
1.36000000000000e+06	(-1.77489894872501e+02dB,9.43542154950804e+01°)
1.36500000000000e+06	(-1.77446350130284e+02dB,9.50839435979484e+01°)
1.37000000000000e+06	(-1.77480102445754e+02dB,9.44898351285455e+01°)
1.37500000000000e+06	(-1.77500406759217e+02dB,9.41877759069591e+01°)
1.38000000000000e+06	(-1.77479507208149e+02dB,9.43399062329143e+01°)
1.38500000000000e+06	(-1.77594188816005e+02dB,9.44132266234586e+01°)
1.39000000000000e+06	(-1.77604084092900e+02dB,9.46875159607120e+01°)
1.39500000000000e+06	(-1.77721634058484e+02dB,9.42620815629197e+01°)
1.40000000000000e+06	(-1.80119224064530e+02dB,9.69379922123545e+01°)
1.40500000000000e+06	(-1.77843328484515e+02dB,9.46180477222308e+01°)
1.41000000000000e+06	(-1.77938593591657e+02dB,9.40231856871545e+01°)
1.41500000000000e+06	(-1.77881390887846e+02dB,9.46085092117128e+01°)
1.42000000000000e+06	(-1.77868797356892e+02dB,9.39379397578319e+01°)
1.42500000000000e+06	(-1.77919045785795e+02dB,9.43389183724038e+01°)
1.43000000000000e+06	(-1.77995016092255e+02dB,9.42838770748878e+01°)
1.43500000000000e+06	(-1.78034971280503e+02dB,9.34613459164744e+01°)
1.44000000000000e+06	(-1.78016965844827e+02dB,9.41526499872396e+01°)
